!--------------------------------------------------
! S-Parameters Coax/SMA to Microstrip (MS) connector for Rogers RO3010 substrate
! Port 1 is the SMA port, port 2 the MS port
! It is recommended to connect the provided S-parameter files on all ports of your structure, 
! without any tapering or shortening of the microstrip line.
! Freq	ReS11	ImS11	ReS21	ImS21	ReS12	ImS12	ReS22	ImS22
!--------------------------------------------------
# GHz S RI R 50
2.00000000e-02	1.55787135e-02	3.45958753e-03	9.85320032e-01	-2.65557716e-02	9.85320032e-01	-2.65557716e-02	-1.19983484e-02	-7.38171856e-03
4.00000000e-02	1.40262027e-02	-1.35190912e-03	9.96588038e-01	-3.85892441e-02	9.96588038e-01	-3.85892441e-02	-1.36651137e-02	-3.36514174e-03
6.00000000e-02	1.50830883e-02	-1.58065681e-03	9.95424676e-01	-5.90870506e-02	9.95424676e-01	-5.90870506e-02	-1.47071217e-02	-4.95256168e-03
8.00000000e-02	1.33438082e-02	-3.17298892e-03	9.92845126e-01	-8.02746163e-02	9.92845126e-01	-8.02746163e-02	-1.50342501e-02	-3.45635064e-03
1.00000000e-01	1.46622142e-02	-6.29344105e-03	9.92882981e-01	-1.00812299e-01	9.92882981e-01	-1.00812299e-01	-1.58299476e-02	-5.83917006e-03
1.20000000e-01	1.67314830e-02	-5.09043925e-03	9.91093130e-01	-1.18573418e-01	9.91093130e-01	-1.18573418e-01	-1.84736562e-02	-3.46830245e-03
1.40000000e-01	1.38827678e-02	-5.18428158e-03	9.89074181e-01	-1.37330458e-01	9.89074181e-01	-1.37330458e-01	-1.68650300e-02	-2.41415467e-03
1.60000000e-01	1.49650757e-02	-8.46929400e-03	9.85985287e-01	-1.55193528e-01	9.85985287e-01	-1.55193528e-01	-1.66850113e-02	-2.74945833e-03
1.80000000e-01	1.59858585e-02	-7.18417797e-03	9.82603673e-01	-1.74842217e-01	9.82603673e-01	-1.74842217e-01	-1.65396293e-02	-3.16035859e-03
2.00000000e-01	1.42340252e-02	-7.95260354e-03	9.79127448e-01	-1.93493823e-01	9.79127448e-01	-1.93493823e-01	-1.65130823e-02	-3.34369793e-03
2.20000000e-01	1.43478480e-02	-9.40455158e-03	9.75218171e-01	-2.12482798e-01	9.75218171e-01	-2.12482798e-01	-1.65094917e-02	-4.45272226e-03
2.40000000e-01	1.41988135e-02	-9.86159428e-03	9.71585936e-01	-2.31041563e-01	9.71585936e-01	-2.31041563e-01	-1.77227955e-02	-4.86321942e-03
2.60000000e-01	1.35713036e-02	-1.08142227e-02	9.66708380e-01	-2.49792033e-01	9.66708380e-01	-2.49792033e-01	-1.81901496e-02	-4.82156012e-03
2.80000000e-01	1.33603229e-02	-1.18528624e-02	9.61573815e-01	-2.68085791e-01	9.61573815e-01	-2.68085791e-01	-1.91754736e-02	-5.18855607e-03
3.00000000e-01	1.31656836e-02	-1.30415365e-02	9.56488150e-01	-2.86436147e-01	9.56488150e-01	-2.86436147e-01	-2.03909090e-02	-4.19420478e-03
3.20000000e-01	1.35922704e-02	-1.33839022e-02	9.50776547e-01	-3.05008309e-01	9.50776547e-01	-3.05008309e-01	-1.97741005e-02	-3.13802876e-03
3.40000000e-01	1.21568047e-02	-1.37211607e-02	9.45025955e-01	-3.23002282e-01	9.45025955e-01	-3.23002282e-01	-1.93015544e-02	-3.32444714e-03
3.60000000e-01	1.19868733e-02	-1.57108823e-02	9.38452958e-01	-3.41199287e-01	9.38452958e-01	-3.41199287e-01	-1.85399168e-02	-3.90138519e-03
3.80000000e-01	1.21477339e-02	-1.59691208e-02	9.31941189e-01	-3.58982986e-01	9.31941189e-01	-3.58982986e-01	-1.95546491e-02	-5.81330040e-03
4.00000000e-01	1.11570756e-02	-1.69591272e-02	9.24786987e-01	-3.76742918e-01	9.24786987e-01	-3.76742918e-01	-2.13908257e-02	-5.10034381e-03
4.20000000e-01	1.12997171e-02	-1.85244519e-02	9.19734942e-01	-3.89570709e-01	9.19734942e-01	-3.89570709e-01	-2.14062590e-02	-4.50664049e-03
4.40000000e-01	1.17571925e-02	-1.86008244e-02	9.11514223e-01	-4.07282256e-01	9.11514223e-01	-4.07282256e-01	-2.20660638e-02	-4.70447203e-03
4.60000000e-01	1.06030979e-02	-1.89250103e-02	9.01572359e-01	-4.29684650e-01	9.01572359e-01	-4.29684650e-01	-2.29324705e-02	-4.86715409e-03
4.80000000e-01	1.03429055e-02	-2.00040289e-02	8.93217679e-01	-4.46960453e-01	8.93217679e-01	-4.46960453e-01	-2.38027501e-02	-3.98822321e-03
5.00000000e-01	9.60367762e-03	-2.04438423e-02	8.84604226e-01	-4.63994156e-01	8.84604226e-01	-4.63994156e-01	-2.38234999e-02	-2.95991240e-03
5.20000000e-01	9.11907504e-03	-2.14827380e-02	8.74755216e-01	-4.80833617e-01	8.74755216e-01	-4.80833617e-01	-2.27147301e-02	-2.44098339e-03
5.40000000e-01	8.31489801e-03	-2.22040983e-02	8.65363454e-01	-4.97512009e-01	8.65363454e-01	-4.97512009e-01	-2.22406957e-02	-4.36087819e-03
5.60000000e-01	8.20314587e-03	-2.35511233e-02	8.55736349e-01	-5.14518229e-01	8.55736349e-01	-5.14518229e-01	-2.43522528e-02	-5.15808398e-03
5.80000000e-01	7.84648335e-03	-2.36579423e-02	8.45433442e-01	-5.30452100e-01	8.45433442e-01	-5.30452100e-01	-2.57332408e-02	-4.38232431e-03
6.00000000e-01	7.03192431e-03	-2.47348321e-02	8.35090015e-01	-5.46711978e-01	8.35090015e-01	-5.46711978e-01	-2.63910907e-02	-3.30478446e-03
6.20000000e-01	6.80080102e-03	-2.52578799e-02	8.24622618e-01	-5.62915921e-01	8.24622618e-01	-5.62915921e-01	-2.62215173e-02	-2.90143895e-03
6.40000000e-01	5.98814721e-03	-2.59697861e-02	8.13517515e-01	-5.78627107e-01	8.13517515e-01	-5.78627107e-01	-2.68044871e-02	-2.93592158e-03
6.60000000e-01	5.54126995e-03	-2.66768420e-02	8.02015242e-01	-5.94104568e-01	8.02015242e-01	-5.94104568e-01	-2.76749167e-02	-2.52835510e-03
6.80000000e-01	4.88069459e-03	-2.73174462e-02	7.90603263e-01	-6.09316891e-01	7.90603263e-01	-6.09316891e-01	-2.79964993e-02	-1.31016543e-03
7.00000000e-01	4.35451251e-03	-2.78720982e-02	7.78603407e-01	-6.24253833e-01	7.78603407e-01	-6.24253833e-01	-2.73552031e-02	-1.39129978e-03
7.20000000e-01	3.41166824e-03	-2.83324841e-02	7.70035402e-01	-6.37500274e-01	7.70035402e-01	-6.37500274e-01	-2.83013295e-02	-1.48321686e-03
7.40000000e-01	2.56788852e-03	-2.93209821e-02	7.57560909e-01	-6.52067042e-01	7.57560909e-01	-6.52067042e-01	-2.87613713e-02	-8.67685257e-04
7.60000000e-01	2.09914024e-03	-2.99644326e-02	7.44892910e-01	-6.66826710e-01	7.44892910e-01	-6.66826710e-01	-2.94606744e-02	-6.75688717e-04
7.80000000e-01	1.29911969e-03	-3.06221466e-02	7.31930972e-01	-6.80860081e-01	7.31930972e-01	-6.80860081e-01	-2.99076537e-02	1.19838031e-04
8.00000000e-01	7.85159546e-04	-3.11778970e-02	7.18556116e-01	-6.94995305e-01	7.18556116e-01	-6.94995305e-01	-3.02341065e-02	3.98833487e-04
8.20000000e-01	-1.58414525e-04	-3.16459071e-02	7.05194532e-01	-7.08309987e-01	7.05194532e-01	-7.08309987e-01	-3.08007786e-02	9.50346553e-04
8.40000000e-01	-8.86491035e-04	-3.22332081e-02	6.91440226e-01	-7.21658328e-01	6.91440226e-01	-7.21658328e-01	-3.12000082e-02	1.55100721e-03
8.60000000e-01	-1.96711540e-03	-3.28342691e-02	6.77385712e-01	-7.35033842e-01	6.77385712e-01	-7.35033842e-01	-3.14650995e-02	2.03197607e-03
8.80000000e-01	-2.54925162e-03	-3.35966678e-02	6.63074217e-01	-7.47892310e-01	6.63074217e-01	-7.47892310e-01	-3.19828948e-02	2.42663284e-03
9.00000000e-01	-3.54537175e-03	-3.40124667e-02	6.48567616e-01	-7.60316829e-01	6.48567616e-01	-7.60316829e-01	-3.25151437e-02	3.11903292e-03
9.20000000e-01	-4.15938024e-03	-3.47983386e-02	6.33859220e-01	-7.72665893e-01	6.33859220e-01	-7.72665893e-01	-3.28487571e-02	3.89632099e-03
9.40000000e-01	-5.07730918e-03	-3.49812075e-02	6.18800899e-01	-7.84729306e-01	6.18800899e-01	-7.84729306e-01	-3.29577238e-02	4.44708180e-03
9.60000000e-01	-5.95646516e-03	-3.57117384e-02	6.03533975e-01	-7.96447800e-01	6.03533975e-01	-7.96447800e-01	-3.34882431e-02	4.85370370e-03
9.80000000e-01	-6.88281118e-03	-3.58872240e-02	5.88113030e-01	-8.08070224e-01	5.88113030e-01	-8.08070224e-01	-3.39492529e-02	5.73848042e-03
1.00000000e+00	-8.01680062e-03	-3.67033198e-02	5.72405832e-01	-8.19011327e-01	5.72405832e-01	-8.19011327e-01	-3.41092366e-02	6.54017498e-03
1.02000000e+00	-8.62008986e-03	-3.71116714e-02	5.56565064e-01	-8.29959242e-01	5.56565064e-01	-8.29959242e-01	-3.42674992e-02	7.16810710e-03
1.04000000e+00	-9.68907528e-03	-3.74352037e-02	5.40371297e-01	-8.40408819e-01	5.40371297e-01	-8.40408819e-01	-3.45445345e-02	7.82533374e-03
1.06000000e+00	-1.06785142e-02	-3.78944228e-02	5.24155216e-01	-8.50731502e-01	5.24155216e-01	-8.50731502e-01	-3.47429907e-02	8.48445133e-03
1.08000000e+00	-1.16459972e-02	-3.83615581e-02	5.07775973e-01	-8.60526278e-01	5.07775973e-01	-8.60526278e-01	-3.50920610e-02	9.25234366e-03
1.10000000e+00	-1.26151707e-02	-3.87000197e-02	4.91093122e-01	-8.70249091e-01	4.91093122e-01	-8.70249091e-01	-3.50707396e-02	1.01307710e-02
1.12000000e+00	-1.36504155e-02	-3.91977128e-02	4.74103308e-01	-8.79436831e-01	4.74103308e-01	-8.79436831e-01	-3.51338919e-02	1.05526138e-02
1.14000000e+00	-1.44137067e-02	-3.94819960e-02	4.56964933e-01	-8.88387703e-01	4.56964933e-01	-8.88387703e-01	-3.55150425e-02	1.11690442e-02
1.16000000e+00	-1.56101063e-02	-3.95584585e-02	4.39750591e-01	-8.96960584e-01	4.39750591e-01	-8.96960584e-01	-3.57877877e-02	1.19137272e-02
1.18000000e+00	-1.67955589e-02	-4.00608462e-02	4.22343671e-01	-9.05112755e-01	4.22343671e-01	-9.05112755e-01	-3.60790457e-02	1.27288216e-02
1.20000000e+00	-1.77510937e-02	-4.03695975e-02	4.04762731e-01	-9.13018265e-01	4.04762731e-01	-9.13018265e-01	-3.62592378e-02	1.35524646e-02
1.22000000e+00	-1.88426020e-02	-4.06706265e-02	3.87148536e-01	-9.20452665e-01	3.87148536e-01	-9.20452665e-01	-3.65722740e-02	1.44344362e-02
1.24000000e+00	-1.98959056e-02	-4.09420816e-02	3.69316749e-01	-9.27724275e-01	3.69316749e-01	-9.27724275e-01	-3.65894269e-02	1.55613261e-02
1.26000000e+00	-2.08945885e-02	-4.12700001e-02	3.51419456e-01	-9.34693963e-01	3.51419456e-01	-9.34693963e-01	-3.65027191e-02	1.62664394e-02
1.28000000e+00	-2.19371173e-02	-4.13025449e-02	3.33324610e-01	-9.41175255e-01	3.33324610e-01	-9.41175255e-01	-3.66675250e-02	1.72502927e-02
1.30000000e+00	-2.31006802e-02	-4.17243979e-02	3.15138682e-01	-9.47318926e-01	3.15138682e-01	-9.47318926e-01	-3.64487050e-02	1.80304382e-02
1.32000000e+00	-2.38335538e-02	-4.16344642e-02	2.96757286e-01	-9.53174276e-01	2.96757286e-01	-9.53174276e-01	-3.67611936e-02	1.87834798e-02
1.34000000e+00	-2.53386413e-02	-4.16857604e-02	2.78414011e-01	-9.58547220e-01	2.78414011e-01	-9.58547220e-01	-3.66985715e-02	2.00184753e-02
1.36000000e+00	-2.61744838e-02	-4.19233802e-02	2.59875456e-01	-9.63684882e-01	2.59875456e-01	-9.63684882e-01	-3.64088932e-02	2.08801924e-02
1.38000000e+00	-2.75084274e-02	-4.17324963e-02	2.41346027e-01	-9.68386086e-01	2.41346027e-01	-9.68386086e-01	-3.62590442e-02	2.15758186e-02
1.40000000e+00	-2.86719949e-02	-4.19653868e-02	2.22690240e-01	-9.72687032e-01	2.22690240e-01	-9.72687032e-01	-3.63987874e-02	2.23991444e-02
1.42000000e+00	-2.99141952e-02	-4.19616702e-02	2.04026213e-01	-9.76846476e-01	2.04026213e-01	-9.76846476e-01	-3.62760556e-02	2.34615176e-02
1.44000000e+00	-3.10299155e-02	-4.21478232e-02	1.85228568e-01	-9.80498769e-01	1.85228568e-01	-9.80498769e-01	-3.60935548e-02	2.43443327e-02
1.46000000e+00	-3.21719092e-02	-4.22101077e-02	1.66271270e-01	-9.83766920e-01	1.66271270e-01	-9.83766920e-01	-3.59675970e-02	2.51745348e-02
1.48000000e+00	-3.30619454e-02	-4.22481194e-02	1.47309608e-01	-9.86750625e-01	1.47309608e-01	-9.86750625e-01	-3.60222802e-02	2.61432552e-02
1.50000000e+00	-3.41992302e-02	-4.19873016e-02	1.28170868e-01	-9.89393297e-01	1.28170868e-01	-9.89393297e-01	-3.57707563e-02	2.72958618e-02
1.52000000e+00	-3.53414580e-02	-4.18376240e-02	1.09280591e-01	-9.91580472e-01	1.09280591e-01	-9.91580472e-01	-3.54884188e-02	2.82872304e-02
1.54000000e+00	-3.67071159e-02	-4.17455638e-02	9.01938902e-02	-9.93510968e-01	9.01938902e-02	-9.93510968e-01	-3.50851680e-02	2.92785760e-02
1.56000000e+00	-3.76042433e-02	-4.17951208e-02	7.09452945e-02	-9.94885318e-01	7.09452945e-02	-9.94885318e-01	-3.48701945e-02	3.01517145e-02
1.58000000e+00	-3.87673532e-02	-4.13451664e-02	5.17472598e-02	-9.95933455e-01	5.17472598e-02	-9.95933455e-01	-3.44206711e-02	3.12320512e-02
1.60000000e+00	-3.99812982e-02	-4.12437429e-02	3.27762836e-02	-9.96753491e-01	3.27762836e-02	-9.96753491e-01	-3.40283107e-02	3.19017514e-02
1.62000000e+00	-4.11289137e-02	-4.09887443e-02	1.34665691e-02	-9.97135974e-01	1.34665691e-02	-9.97135974e-01	-3.38883869e-02	3.28689909e-02
1.64000000e+00	-4.21961854e-02	-4.07481806e-02	-5.71381501e-03	-9.97139317e-01	-5.71381501e-03	-9.97139317e-01	-3.35850881e-02	3.38648917e-02
1.66000000e+00	-4.34403857e-02	-4.03768282e-02	-2.49129009e-02	-9.96818768e-01	-2.49129009e-02	-9.96818768e-01	-3.32003319e-02	3.49803629e-02
1.68000000e+00	-4.45117622e-02	-4.01359515e-02	-4.40958694e-02	-9.95992871e-01	-4.40958694e-02	-9.95992871e-01	-3.27351854e-02	3.59300540e-02
1.70000000e+00	-4.58122132e-02	-3.96647081e-02	-6.32400992e-02	-9.94966086e-01	-6.32400992e-02	-9.94966086e-01	-3.22788792e-02	3.70256991e-02
1.72000000e+00	-4.69837259e-02	-3.95994951e-02	-8.24357262e-02	-9.93398040e-01	-8.24357262e-02	-9.93398040e-01	-3.16766543e-02	3.78708207e-02
1.74000000e+00	-4.78890736e-02	-3.92131510e-02	-1.01508981e-01	-9.91551458e-01	-1.01508981e-01	-9.91551458e-01	-3.14444794e-02	3.88812366e-02
1.76000000e+00	-4.89551875e-02	-3.86286129e-02	-1.20585522e-01	-9.89261870e-01	-1.20585522e-01	-9.89261870e-01	-3.07232154e-02	4.01881673e-02
1.78000000e+00	-5.02915909e-02	-3.82211447e-02	-1.39646927e-01	-9.86822475e-01	-1.39646927e-01	-9.86822475e-01	-2.99048096e-02	4.08992672e-02
1.80000000e+00	-5.11409070e-02	-3.79231313e-02	-1.58532236e-01	-9.83682390e-01	-1.58532236e-01	-9.83682390e-01	-2.95384210e-02	4.17877953e-02
1.82000000e+00	-5.22585435e-02	-3.71211103e-02	-1.77338675e-01	-9.80502812e-01	-1.77338675e-01	-9.80502812e-01	-2.89285094e-02	4.28349499e-02
1.84000000e+00	-5.34649115e-02	-3.66872103e-02	-1.96135926e-01	-9.76799825e-01	-1.96135926e-01	-9.76799825e-01	-2.84178178e-02	4.38752674e-02
1.86000000e+00	-5.45652980e-02	-3.61196116e-02	-2.14818171e-01	-9.72629265e-01	-2.14818171e-01	-9.72629265e-01	-2.76511207e-02	4.51067383e-02
1.88000000e+00	-5.56052311e-02	-3.55843494e-02	-2.33523266e-01	-9.68266119e-01	-2.33523266e-01	-9.68266119e-01	-2.68412492e-02	4.60843735e-02
1.90000000e+00	-5.67566791e-02	-3.49297879e-02	-2.52121256e-01	-9.63607338e-01	-2.52121256e-01	-9.63607338e-01	-2.59443447e-02	4.71736322e-02
1.92000000e+00	-5.77492236e-02	-3.43964047e-02	-2.70427084e-01	-9.58517147e-01	-2.70427084e-01	-9.58517147e-01	-2.50007793e-02	4.80260775e-02
1.94000000e+00	-5.88900578e-02	-3.36249320e-02	-2.88975485e-01	-9.53086373e-01	-2.88975485e-01	-9.53086373e-01	-2.41986339e-02	4.90067182e-02
1.96000000e+00	-5.99795977e-02	-3.31348571e-02	-3.07211477e-01	-9.47352881e-01	-3.07211477e-01	-9.47352881e-01	-2.31988073e-02	4.99775948e-02
1.98000000e+00	-6.09605498e-02	-3.25197160e-02	-3.25480352e-01	-9.41135623e-01	-3.25480352e-01	-9.41135623e-01	-2.21156870e-02	5.08799286e-02
2.00000000e+00	-6.17126150e-02	-3.18825064e-02	-3.43537368e-01	-9.34632814e-01	-3.43537368e-01	-9.34632814e-01	-2.11212240e-02	5.15119506e-02
2.02000000e+00	-6.26573138e-02	-3.08334409e-02	-3.61380197e-01	-9.27844035e-01	-3.61380197e-01	-9.27844035e-01	-2.03094317e-02	5.24218004e-02
2.04000000e+00	-6.37386326e-02	-3.00139025e-02	-3.79153919e-01	-9.20638321e-01	-3.79153919e-01	-9.20638321e-01	-1.92102548e-02	5.33188205e-02
2.06000000e+00	-6.48568572e-02	-2.91351418e-02	-3.96967696e-01	-9.13080139e-01	-3.96967696e-01	-9.13080139e-01	-1.82235585e-02	5.41259739e-02
2.08000000e+00	-6.58553646e-02	-2.84308867e-02	-4.14369310e-01	-9.05110849e-01	-4.14369310e-01	-9.05110849e-01	-1.70843849e-02	5.50163582e-02
2.10000000e+00	-6.69010598e-02	-2.75449562e-02	-4.31679890e-01	-8.96976092e-01	-4.31679890e-01	-8.96976092e-01	-1.59203428e-02	5.57176349e-02
2.12000000e+00	-6.78221775e-02	-2.68468637e-02	-4.48842603e-01	-8.88435060e-01	-4.48842603e-01	-8.88435060e-01	-1.49009222e-02	5.64757217e-02
2.14000000e+00	-6.87984284e-02	-2.59003739e-02	-4.65813895e-01	-8.79649051e-01	-4.65813895e-01	-8.79649051e-01	-1.37004841e-02	5.73530187e-02
2.16000000e+00	-6.96575550e-02	-2.51968441e-02	-4.82820546e-01	-8.70454408e-01	-4.82820546e-01	-8.70454408e-01	-1.24920525e-02	5.80272319e-02
2.18000000e+00	-7.05536289e-02	-2.41218714e-02	-4.99463018e-01	-8.60828684e-01	-4.99463018e-01	-8.60828684e-01	-1.13312039e-02	5.88635492e-02
2.20000000e+00	-7.14834825e-02	-2.34401922e-02	-5.15963365e-01	-8.50823997e-01	-5.15963365e-01	-8.50823997e-01	-9.98367214e-03	5.96742803e-02
2.22000000e+00	-7.21533145e-02	-2.23602549e-02	-5.32176178e-01	-8.40732448e-01	-5.32176178e-01	-8.40732448e-01	-8.52135451e-03	6.03891872e-02
2.24000000e+00	-7.31117554e-02	-2.14476988e-02	-5.47932804e-01	-8.30281796e-01	-5.47932804e-01	-8.30281796e-01	-7.03538744e-03	6.09327667e-02
2.26000000e+00	-7.37803153e-02	-2.03874733e-02	-5.63959609e-01	-8.19433877e-01	-5.63959609e-01	-8.19433877e-01	-5.69134754e-03	6.14945650e-02
2.28000000e+00	-7.47974958e-02	-1.92776070e-02	-5.79468681e-01	-8.08317244e-01	-5.79468681e-01	-8.08317244e-01	-4.24215244e-03	6.19981500e-02
2.30000000e+00	-7.56778832e-02	-1.84614257e-02	-5.95043557e-01	-7.96935876e-01	-5.95043557e-01	-7.96935876e-01	-2.89544018e-03	6.25138746e-02
2.32000000e+00	-7.62945554e-02	-1.75057621e-02	-6.10194668e-01	-7.85275783e-01	-6.10194668e-01	-7.85275783e-01	-1.38074456e-03	6.30116641e-02
2.34000000e+00	-7.70870417e-02	-1.63255375e-02	-6.25092374e-01	-7.73359103e-01	-6.25092374e-01	-7.73359103e-01	3.28894688e-05	6.33618567e-02
2.36000000e+00	-7.79211640e-02	-1.54094018e-02	-6.39969592e-01	-7.61291223e-01	-6.39969592e-01	-7.61291223e-01	1.29255914e-03	6.39112562e-02
2.38000000e+00	-7.85456507e-02	-1.43963329e-02	-6.54715689e-01	-7.48831371e-01	-6.54715689e-01	-7.48831371e-01	2.99434699e-03	6.46550202e-02
2.40000000e+00	-7.91683244e-02	-1.33130019e-02	-6.69254601e-01	-7.35898600e-01	-6.69254601e-01	-7.35898600e-01	4.81514244e-03	6.48808345e-02
2.42000000e+00	-7.98959195e-02	-1.21118444e-02	-6.83103750e-01	-7.22583494e-01	-6.83103750e-01	-7.22583494e-01	6.43834848e-03	6.52172582e-02
2.44000000e+00	-8.05893298e-02	-1.11759361e-02	-6.96722330e-01	-7.09102948e-01	-6.96722330e-01	-7.09102948e-01	8.26626884e-03	6.53951908e-02
2.46000000e+00	-8.10712713e-02	-9.93833567e-03	-7.10207577e-01	-6.95620414e-01	-7.10207577e-01	-6.95620414e-01	9.91864606e-03	6.53776413e-02
2.48000000e+00	-8.18681248e-02	-8.81809397e-03	-7.23304813e-01	-6.81542867e-01	-7.23304813e-01	-6.81542867e-01	1.14018882e-02	6.53859615e-02
2.50000000e+00	-8.23081371e-02	-7.70871935e-03	-7.36285236e-01	-6.67479306e-01	-7.36285236e-01	-6.67479306e-01	1.28611726e-02	6.56799429e-02
2.52000000e+00	-8.30947148e-02	-6.36327123e-03	-7.49116936e-01	-6.52499703e-01	-7.49116936e-01	-6.52499703e-01	1.46702219e-02	6.58223937e-02
2.54000000e+00	-8.38026052e-02	-5.52595412e-03	-7.61373664e-01	-6.38103296e-01	-7.61373664e-01	-6.38103296e-01	1.62085143e-02	6.57071312e-02
2.56000000e+00	-8.41019287e-02	-4.41792091e-03	-7.73449104e-01	-6.23272064e-01	-7.73449104e-01	-6.23272064e-01	1.78740335e-02	6.59054084e-02
2.58000000e+00	-8.46566995e-02	-3.16616013e-03	-7.85267402e-01	-6.08073579e-01	-7.85267402e-01	-6.08073579e-01	1.97275624e-02	6.58186691e-02
2.60000000e+00	-8.51156761e-02	-2.07069725e-03	-7.96867796e-01	-5.92759608e-01	-7.96867796e-01	-5.92759608e-01	2.13086362e-02	6.55495019e-02
2.62000000e+00	-8.54979078e-02	-7.92671335e-04	-8.08049596e-01	-5.77319162e-01	-8.08049596e-01	-5.77319162e-01	2.28386779e-02	6.55559355e-02
2.64000000e+00	-8.60536497e-02	5.14310082e-04	-8.18869318e-01	-5.61633682e-01	-8.18869318e-01	-5.61633682e-01	2.46458076e-02	6.55473382e-02
2.66000000e+00	-8.66146984e-02	1.65192231e-03	-8.29600859e-01	-5.45733687e-01	-8.29600859e-01	-5.45733687e-01	2.64803155e-02	6.53613355e-02
2.68000000e+00	-8.70382722e-02	2.77305972e-03	-8.39802506e-01	-5.29569660e-01	-8.39802506e-01	-5.29569660e-01	2.82395683e-02	6.50097510e-02
2.70000000e+00	-8.73996181e-02	3.92675072e-03	-8.49890201e-01	-5.13199529e-01	-8.49890201e-01	-5.13199529e-01	2.98800011e-02	6.48590306e-02
2.72000000e+00	-8.77163877e-02	5.18663619e-03	-8.59606624e-01	-4.96551440e-01	-8.59606624e-01	-4.96551440e-01	3.18074329e-02	6.45786753e-02
2.74000000e+00	-8.81383812e-02	6.46096709e-03	-8.68957762e-01	-4.79909129e-01	-8.68957762e-01	-4.79909129e-01	3.36409546e-02	6.41793730e-02
2.76000000e+00	-8.85527059e-02	7.66979420e-03	-8.77878491e-01	-4.62890732e-01	-8.77878491e-01	-4.62890732e-01	3.55361385e-02	6.36240895e-02
2.78000000e+00	-8.89295094e-02	8.79667515e-03	-8.86640187e-01	-4.45821573e-01	-8.86640187e-01	-4.45821573e-01	3.71546966e-02	6.31786384e-02
